! Nitronex, LLC.
! NPTB00004A 4W, 28V, GaN on Si
! Vdd = 28V, Idq = 250mA 
! 21 December 2013
!
! 2 Port S-Parameters, de-embeded to device plane edge and lead width
! 
! File format is Touchstone s2p
!
! Technical support available at:  sales@nitronex.com
!
# Hz S RI R 50                                                       
60000000  0.9039222 -0.3716042 -31.5293463  7.5048143  0.0027261  0.0079383  0.6495010 -0.1975929 
70000000  0.8792345 -0.4246995 -30.9307666  8.4616511  0.0027385  0.0091655  0.6299382 -0.2262094 
80000000  0.8435060 -0.4702254 -30.1388576  9.6032670  0.0034758  0.0101752  0.6105234 -0.2436578 
90000000  0.8060870 -0.5126938 -29.3601678 10.5890041  0.0042905  0.0110832  0.5915895 -0.2614166 
100000000  0.7679170 -0.5520113 -28.5741508 11.4530142  0.0051214  0.0119103  0.5728245 -0.2783509 
110000000  0.7291816 -0.5884103 -27.7764711 12.2307075  0.0059619  0.0126720  0.5540610 -0.2941161 
120000000  0.6898859 -0.6217126 -26.9682969 12.9316119  0.0068164  0.0133656  0.5352380 -0.3085346 
130000000  0.6506099 -0.6545017 -26.1603862 13.6240939  0.0076686  0.0140489  0.5163825 -0.3227273 
140000000  0.6108018 -0.6844895 -25.3450795 14.2517736  0.0085391  0.0146686  0.4974976 -0.3357006 
150000000  0.5706206 -0.7116747 -24.5259351 14.8176226  0.0094210  0.0152253  0.4785815 -0.3474940 
160000000  0.5301775 -0.7360598 -23.7056821 15.3260322  0.0103110  0.0157190  0.4596532 -0.3581034 
170000000  0.4896065 -0.7576935 -22.8874916 15.7805700  0.0112043  0.0161509  0.4407539 -0.3675598 
180000000  0.4490697 -0.7766636 -22.0745146 16.1841403  0.0120952  0.0165234  0.4219427 -0.3759071 
190000000  0.4087411 -0.7930778 -21.2696558 16.5390036  0.0129773  0.0168397  0.4032921 -0.3831875 
200000000  0.3687965 -0.8070743 -20.4756919 16.8475139  0.0138455  0.0171035  0.3848844 -0.3894507 
210000000  0.3293946 -0.8188009 -19.6951511 17.1119566  0.0146958  0.0173187  0.3668011 -0.3947511 
220000000  0.2906679 -0.8284083 -18.9302116 17.3348383  0.0155262  0.0174888  0.3491145 -0.3991502 
230000000  0.2527207 -0.8360440 -18.1825878 17.5189565  0.0163356  0.0176173  0.3318799 -0.4027150 
240000000  0.2156337 -0.8418486 -17.4534702 17.6673100  0.0171232  0.0177071  0.3151325 -0.4055154 
250000000  0.1794708 -0.8459568 -16.7435879 17.7829084  0.0178884  0.0177612  0.2988898 -0.4076203 
260000000  0.1442855 -0.8485020 -16.0533820 17.8686042  0.0186302  0.0177825  0.2831579 -0.4090972 
270000000  0.1101220 -0.8496204 -15.3831928 17.9270048  0.0193478  0.0177737  0.2679382 -0.4100108 
280000000  0.0770120 -0.8494520 -14.7333763 17.9604902  0.0200407  0.0177375  0.2532329 -0.4104236 
290000000  0.0449703 -0.8481371 -14.1043182 17.9712828  0.0207089  0.0176763  0.2390459 -0.4103938 
300000000  0.0139925 -0.8458091 -13.4963495 17.9615187  0.0213531  0.0175923  0.2253824 -0.4099743 
310000000 -0.0159417 -0.8425880 -12.9096322 17.9332641  0.0219742  0.0174879  0.2122454 -0.4092101 
320000000 -0.0448605 -0.8385753 -12.3440709 17.8884908  0.0225728  0.0173651  0.1996327 -0.4081378 
330000000 -0.0727924 -0.8338535 -11.7992972 17.8290254  0.0231496  0.0172260  0.1875352 -0.4067876 
340000000 -0.0997601 -0.8284877 -11.2747012 17.7565018  0.0237048  0.0170725  0.1759359 -0.4051849 
350000000 -0.1257794 -0.8225290 -10.7695155 17.6723404  0.0242385  0.0169064  0.1648113 -0.4033525 
360000000 -0.1508613 -0.8160189 -10.2829092 17.5777536  0.0247507  0.0167287  0.1541344 -0.4013112 
370000000 -0.1750160 -0.8089939 -9.8140820 17.4737785  0.0252415  0.0165406  0.1438790 -0.3990794 
380000000 -0.1982555 -0.8014898 -9.3623257 17.3613244  0.0257110  0.0163428  0.1340218 -0.3966730 
390000000 -0.2205965 -0.7935448 -8.9270531 17.2412239  0.0261594  0.0161366  0.1245439 -0.3941061 
400000000 -0.2420599 -0.7852007 -8.5077899 17.1142785  0.0265870  0.0159235  0.1154302 -0.3913926 
410000000 -0.2626707 -0.7765032 -8.1041378 16.9812853  0.0269942  0.0157052  0.1066679 -0.3885485 
420000000 -0.2824571 -0.7675011 -7.7157218 16.8430506  0.0273816  0.0154835  0.0982449 -0.3855930 
430000000 -0.3014505 -0.7582441 -7.3421331 16.7003890  0.0277495  0.0152602  0.0901485 -0.3825489 
440000000 -0.3196873 -0.7487801 -6.9828794 16.5541036  0.0280985  0.0150362  0.0823648 -0.3794411 
450000000 -0.3372104 -0.7391507 -6.6373669 16.4049537  0.0284296  0.0148124  0.0748788 -0.3762940 
460000000 -0.3540690 -0.7293895 -6.3049135 16.2536152  0.0287440  0.0145890  0.0676755 -0.3731283 
470000000 -0.3703162 -0.7195206 -5.9847994 16.1006546  0.0290431  0.0143660  0.0607408 -0.3699596 
480000000 -0.3860031 -0.7095602 -5.6763256 15.9465145  0.0293287  0.0141436  0.0540632 -0.3667970 
490000000 -0.4011710 -0.6995190 -5.3788662 15.7915216  0.0296023  0.0139219  0.0476340 -0.3636445 
500000000 -0.4158461 -0.6894044 -5.0918916 15.6359102  0.0298654  0.0137009  0.0414472 -0.3605030 
510000000 -0.4300385 -0.6792230 -4.8149667 15.4798544  0.0301187  0.0134810  0.0354979 -0.3573737 
520000000 -0.4437460 -0.6689823 -4.5477313 15.3235022  0.0303630  0.0132625  0.0297808 -0.3542597 
530000000 -0.4569615 -0.6586916 -4.2898787 15.1669978  0.0305983  0.0130455  0.0242877 -0.3511667 
540000000 -0.4696812 -0.6483624 -4.0411400 15.0104906  0.0308247  0.0128301  0.0190069 -0.3481011 
550000000 -0.4819083 -0.6380075 -3.8012752 14.8541302  0.0310423  0.0126162  0.0139225 -0.3450677 
560000000 -0.4936539 -0.6276407 -3.5700675 14.6980573  0.0312509  0.0124033  0.0090169 -0.3420670 
570000000 -0.5049335 -0.6172765 -3.3473138 14.5423978  0.0314510  0.0121907  0.0042725 -0.3390946 
580000000 -0.5157634 -0.6069297 -3.1328075 14.3872645  0.0316430  0.0119777 -0.0003254 -0.3361436 
590000000 -0.5261582 -0.5966155 -2.9263142 14.2327702  0.0318275  0.0117638 -0.0047875 -0.3332072 
600000000 -0.5361308 -0.5863487 -2.7275473 14.0790445  0.0320052  0.0115488 -0.0091213 -0.3302839 
610000000 -0.5456947 -0.5761425 -2.5361562 13.9262483  0.0321767  0.0113332 -0.0133328 -0.3273793 
620000000 -0.5548649 -0.5660074 -2.3517319 13.7745712  0.0323423  0.0111178 -0.0174292 -0.3245058 
630000000 -0.5636593 -0.5559500 -2.1738311 13.6242112  0.0325019  0.0109038 -0.0214214 -0.3216787 
640000000 -0.5720967 -0.5459725 -2.0020112 13.4753367  0.0326555  0.0106919 -0.0253235 -0.3189108 
650000000 -0.5801963 -0.5360730 -1.8358674 13.3280485  0.0328025  0.0104824 -0.0291510 -0.3162065 
660000000 -0.5879750 -0.5262484 -1.6750666 13.1823593  0.0329424  0.0102753 -0.0329169 -0.3135599 
670000000 -0.5954480 -0.5164966 -1.5193722 13.0382067  0.0330746  0.0100700 -0.0366279 -0.3109562 
680000000 -0.6026283 -0.5068197 -1.3686533 12.8954990  0.0331985  0.0098662 -0.0402818 -0.3083773 
690000000 -0.6095280 -0.4972254 -1.2228689 12.7541820  0.0333134  0.0096637 -0.0438684 -0.3058092 
700000000 -0.6161597 -0.4877256 -1.0820235 12.6142969  0.0334193  0.0094627 -0.0473733 -0.3032481 
710000000 -0.6225376 -0.4783340 -0.9460949 12.4760009  0.0335169  0.0092638 -0.0507848 -0.3007034 
720000000 -0.6286781 -0.4690623 -0.8149601 12.3395317  0.0336072  0.0090677 -0.0541009 -0.2981947 
730000000 -0.6346002 -0.4599164 -0.6883471 12.2051264  0.0336921  0.0088751 -0.0573335 -0.2957439 
740000000 -0.6403234 -0.4508944 -0.5658378 12.0729203  0.0337734  0.0086861 -0.0605070 -0.2933660 
750000000 -0.6458654 -0.4419872 -0.4469301 11.9428652  0.0338523  0.0085005 -0.0636514 -0.2910600 
760000000 -0.6512392 -0.4331807 -0.3311484 11.8146978  0.0339295  0.0083175 -0.0667911 -0.2888060 
770000000 -0.6564515 -0.4244606 -0.2181716 11.6879782  0.0340044  0.0081364 -0.0699329 -0.2865686 
780000000 -0.6615021 -0.4158171 -0.1079365 11.5621988  0.0340761  0.0079565 -0.0730576 -0.2843078 
790000000 -0.6663862 -0.4072479 -0.0006700 11.4369372  0.0341431  0.0077775 -0.0761207 -0.2819944 
800000000 -0.6710979 -0.3987587  0.1031795 11.3120057  0.0342043  0.0075999 -0.0790622 -0.2796236 
810000000 -0.6756345 -0.3903600  0.2031075 11.1875362  0.0342591  0.0074250 -0.0818255 -0.2772209 
820000000 -0.6799991 -0.3820623  0.2987554 11.0639569  0.0343079  0.0072545 -0.0843755 -0.2748370 
830000000 -0.6842021 -0.3738716  0.3900663 10.9418634  0.0343517  0.0070896 -0.0867105 -0.2725321 
840000000 -0.6882585 -0.3657866  0.4773274 10.8218383  0.0343917  0.0069312 -0.0888609 -0.2703574 
850000000 -0.6921843 -0.3578001  0.5610948 10.7042902  0.0344289  0.0067789 -0.0908783 -0.2683420 
860000000 -0.6959924 -0.3499006  0.6420434 10.5893664  0.0344640  0.0066315 -0.0928205 -0.2664881 
870000000 -0.6996894 -0.3420761  0.7208080 10.4769528  0.0344974  0.0064874 -0.0947382 -0.2647748 
880000000 -0.7032750 -0.3343161  0.7978678 10.3667423  0.0345289  0.0063449 -0.0966676 -0.2631665 
890000000 -0.7067443 -0.3266121  0.8734923 10.2583317  0.0345583  0.0062028 -0.0986274 -0.2616226 
900000000 -0.7100909 -0.3189581  0.9477447 10.1513160  0.0345853  0.0060605 -0.1006216 -0.2601049 
910000000 -0.7133097 -0.3113499  1.0205239 10.0453562  0.0346100  0.0059184 -0.1026429 -0.2585824 
920000000 -0.7163986 -0.3037857  1.0916300  9.9402169  0.0346325  0.0057773 -0.1046784 -0.2570342 
930000000 -0.7193579 -0.2962660  1.1608338  9.8357727  0.0346533  0.0056380 -0.1067135 -0.2554489 
940000000 -0.7221886 -0.2887942  1.2279353  9.7319977  0.0346731  0.0055012 -0.1087358 -0.2538242 
950000000 -0.7248916 -0.2813764  1.2927994  9.6289475  0.0346927  0.0053673 -0.1107367 -0.2521637 
960000000 -0.7274675 -0.2740214  1.3553665  9.5267393  0.0347127  0.0052361 -0.1127106 -0.2504749 
970000000 -0.7299176 -0.2667391  1.4156453  9.4255343  0.0347334  0.0051072 -0.1146533 -0.2487667 
980000000 -0.7322447 -0.2595389  1.4736975  9.3255187  0.0347550  0.0049799 -0.1165601 -0.2470475 
990000000 -0.7344539 -0.2524286  1.5296269  9.2268792  0.0347767  0.0048535 -0.1184242 -0.2453257 
1000000000 -0.7365518 -0.2454127  1.5835724  9.1297770  0.0347978  0.0047276 -0.1202372 -0.2436091 
1010000000 -0.7385458 -0.2384926  1.6357011  9.0343230  0.0348173  0.0046020 -0.1219907 -0.2419063 
1020000000 -0.7404427 -0.2316669  1.6861982  8.9405677  0.0348340  0.0044765 -0.1236791 -0.2402257 
1030000000 -0.7422477 -0.2249329  1.7352508  8.8485076  0.0348476  0.0043515 -0.1253010 -0.2385761 
1040000000 -0.7439650 -0.2182873  1.7830345  8.7581031  0.0348577  0.0042274 -0.1268603 -0.2369659 
1050000000 -0.7455988 -0.2117272  1.8297063  8.6692957  0.0348647  0.0041044 -0.1283652 -0.2354029 
1060000000 -0.7471542 -0.2052490  1.8754073  8.5820146  0.0348690  0.0039829 -0.1298276 -0.2338944 
1070000000 -0.7486370 -0.1988482  1.9202719  8.4961669  0.0348711  0.0038625 -0.1312614 -0.2324475 
1080000000 -0.7500526 -0.1925184  1.9644329  8.4116178  0.0348712  0.0037431 -0.1326819 -0.2310694 
1090000000 -0.7514041 -0.1862523  2.0080106  8.3281729  0.0348691  0.0036242 -0.1341059 -0.2297663 
1100000000 -0.7526914 -0.1800450  2.0510837  8.2455767  0.0348640  0.0035052 -0.1355515 -0.2285423 
1110000000 -0.7539124 -0.1738971  2.0936483  8.1635364  0.0348549  0.0033863 -0.1370376 -0.2273956 
1120000000 -0.7550657 -0.1678167  2.1355850  8.0817718  0.0348404  0.0032679 -0.1385829 -0.2263163 
1130000000 -0.7561551 -0.1618176  2.1766525  8.0000798  0.0348197  0.0031514 -0.1402016 -0.2252838 
1140000000 -0.7571928 -0.1559138  2.2165238  7.9183971  0.0347925  0.0030389 -0.1419002 -0.2242688 
1150000000 -0.7581989 -0.1501118  2.2548621  7.8368352  0.0347598  0.0029323 -0.1436728 -0.2232367 
1160000000 -0.7591975 -0.1444043  2.2914169  7.7556706  0.0347237  0.0028336 -0.1455002 -0.2221561 
1170000000 -0.7602095 -0.1387696  2.3261076  7.6752832  0.0346868  0.0027435 -0.1473523 -0.2210065 
1180000000 -0.7612465 -0.1331765  2.3590580  7.5960574  0.0346520  0.0026615 -0.1491953 -0.2197848 
1190000000 -0.7623071 -0.1275927  2.3905662  7.5182792  0.0346218  0.0025860 -0.1510007 -0.2185054 
1200000000 -0.7633778 -0.1219942  2.4210181  7.4420676  0.0345976  0.0025141 -0.1527520 -0.2171950 
1210000000 -0.7644373 -0.1163716  2.4507795  7.3673629  0.0345793  0.0024429 -0.1544478 -0.2158833 
1220000000 -0.7654617 -0.1107302  2.4801095  7.2939701  0.0345664  0.0023693 -0.1560991 -0.2145946 
1230000000 -0.7664293 -0.1050871  2.5091199  7.2216312  0.0345570  0.0022911 -0.1577242 -0.2133424 
1240000000 -0.7673234 -0.0994639  2.5377879  7.1500957  0.0345494  0.0022074 -0.1593414 -0.2121290 
1250000000 -0.7681340 -0.0938806  2.5660022  7.0791687  0.0345415  0.0021181 -0.1609647 -0.2109490 
1260000000 -0.7688574 -0.0883512  2.5936193  7.0087302  0.0345315  0.0020242 -0.1626013 -0.2097933 
1270000000 -0.7694958 -0.0828820  2.6205093  6.9387286  0.0345182  0.0019273 -0.1642515 -0.2086528 
1280000000 -0.7700552 -0.0774735  2.6465796  6.8691606  0.0345004  0.0018295 -0.1659104 -0.2075196 
1290000000 -0.7705434 -0.0721226  2.6717789  6.8000475  0.0344776  0.0017324 -0.1675693 -0.2063875 
1300000000 -0.7709675 -0.0668255  2.6960842  6.7314161  0.0344496  0.0016376 -0.1692173 -0.2052506 
1310000000 -0.7713324 -0.0615794  2.7194839  6.6632925  0.0344165  0.0015461 -0.1708418 -0.2041035 
1320000000 -0.7716402 -0.0563833  2.7419629  6.5957066  0.0343785  0.0014585 -0.1724294 -0.2029416 
1330000000 -0.7718908 -0.0512389  2.7634989  6.5287042  0.0343359  0.0013752 -0.1739663 -0.2017629 
1340000000 -0.7720838 -0.0461498  2.7840694  6.4623584  0.0342896  0.0012964 -0.1754408 -0.2005690 
1350000000 -0.7722208 -0.0411212  2.8036664  6.3967731  0.0342404  0.0012224 -0.1768442 -0.1993665 
1360000000 -0.7723073 -0.0361596  2.8223111  6.3320742  0.0341899  0.0011539 -0.1781740 -0.1981663 
1370000000 -0.7723539 -0.0312710  2.8400630  6.2683906  0.0341396  0.0010917 -0.1794341 -0.1969824 
1380000000 -0.7723749 -0.0264601  2.8570191  6.2058292  0.0340912  0.0010365 -0.1806351 -0.1958295 
1390000000 -0.7723874 -0.0217284  2.8733057  6.1444544  0.0340463  0.0009888 -0.1817928 -0.1947207 
1400000000 -0.7724085 -0.0170734  2.8890648  6.0842763  0.0340060  0.0009484 -0.1829255 -0.1936646 
1410000000 -0.7724535 -0.0124882  2.9044397  6.0252513  0.0339714  0.0009140 -0.1840516 -0.1926639 
1420000000 -0.7725335 -0.0079623  2.9195592  5.9672909  0.0339428  0.0008836 -0.1851860 -0.1917152 
1430000000 -0.7726537 -0.0034834  2.9345242  5.9102758  0.0339202  0.0008548 -0.1863389 -0.1908092 
1440000000 -0.7728126  0.0009608  2.9493969  5.8540730  0.0339029  0.0008248 -0.1875143 -0.1899336 
1450000000 -0.7730021  0.0053809  2.9641967  5.7985507  0.0338897  0.0007912 -0.1887102 -0.1890760 
1460000000 -0.7732084  0.0097858  2.9789049  5.7435933  0.0338787  0.0007522 -0.1899201 -0.1882280 
1470000000 -0.7734150  0.0141822  2.9934766  5.6891105  0.0338678  0.0007071 -0.1911356 -0.1873869 
1480000000 -0.7736056  0.0185744  3.0078581  5.6350413  0.0338551  0.0006561 -0.1923502 -0.1865557 
1490000000 -0.7737668  0.0229642  3.0220033  5.5813515  0.0338387  0.0006002 -0.1935616 -0.1857412 
1500000000 -0.7738903  0.0273503  3.0358806  5.5280243  0.0338174  0.0005411 -0.1947732 -0.1849493 
1510000000 -0.7739726  0.0317283  3.0494724  5.4750503  0.0337907  0.0004809 -0.1959936 -0.1841817 
1520000000 -0.7740146  0.0360927  3.0627647  5.4224178  0.0337590  0.0004218 -0.1972336 -0.1834330 
1530000000 -0.7740190  0.0404384  3.0757377  5.3701110  0.0337235  0.0003654 -0.1985031 -0.1826911 
1540000000 -0.7739892  0.0447642  3.0883610  5.3181132  0.0336859  0.0003129 -0.1998081 -0.1819400 
1550000000 -0.7739277  0.0490730  3.1005963  5.2664161  0.0336483  0.0002645 -0.2011484 -0.1811634 
1560000000 -0.7738356  0.0533716  3.1124064  5.2150259  0.0336124  0.0002194 -0.2025177 -0.1803494 
1570000000 -0.7737118  0.0576673  3.1237635  5.1639667  0.0335790  0.0001760 -0.2039050 -0.1794929 
1580000000 -0.7735538  0.0619649  3.1346565  5.1132767  0.0335479  0.0001325 -0.2052970 -0.1785957 
1590000000 -0.7733573  0.0662641  3.1450907  5.0630000  0.0335176  0.0000870 -0.2066803 -0.1776662 
1600000000 -0.7731181  0.0705586  3.1550843  5.0131763  0.0334864  0.0000387 -0.2080443 -0.1767160 
1610000000 -0.7728333  0.0748371  3.1646626  4.9638331  0.0334521 -0.0000122 -0.2093823 -0.1757586 
1620000000 -0.7725025  0.0790861  3.1738533  4.9149824  0.0334134 -0.0000645 -0.2106919 -0.1748071 
1630000000 -0.7721288  0.0832924  3.1826859  4.8666217  0.0333697 -0.0001162 -0.2119749 -0.1738733 
1640000000 -0.7717187  0.0874461  3.1911914  4.8187374  0.0333212 -0.0001650 -0.2132360 -0.1729679 
1650000000 -0.7712812  0.0915420  3.1994010  4.7713094  0.0332689 -0.0002088 -0.2144819 -0.1720988 
1660000000 -0.7708257  0.0955798  3.2073418  4.7243142  0.0332139 -0.0002462 -0.2157207 -0.1712712 
1670000000 -0.7703599  0.0995633  3.2150307  4.6777298  0.0331576 -0.0002765 -0.2169609 -0.1704862 
1680000000 -0.7698886  0.1034989  3.2224700  4.6315405  0.0331016 -0.0002998 -0.2182110 -0.1697403 
1690000000 -0.7694136  0.1073929  3.2296461  4.5857426  0.0330471 -0.0003168 -0.2194779 -0.1690262 
1700000000 -0.7689346  0.1112507  3.2365342  4.5403472  0.0329953 -0.0003290 -0.2207664 -0.1683332 
1710000000 -0.7684500  0.1150755  3.2431068  4.4953808  0.0329471 -0.0003378 -0.2220781 -0.1676498 
1720000000 -0.7679583  0.1188685  3.2493464  4.4508799  0.0329031 -0.0003449 -0.2234116 -0.1669655 
1730000000 -0.7674581  0.1226296  3.2552561  4.4068810  0.0328638 -0.0003517 -0.2247635 -0.1662721 
1740000000 -0.7669483  0.1263577  3.2608632  4.3634089  0.0328293 -0.0003598 -0.2261301 -0.1655640 
1750000000 -0.7664275  0.1300518  3.2662146  4.3204659  0.0327995 -0.0003701 -0.2275084 -0.1648382 
1760000000 -0.7658946  0.1337111  3.2713622  4.2780278  0.0327738 -0.0003834 -0.2288969 -0.1640932 
1770000000 -0.7653481  0.1373364  3.2763484  4.2360485  0.0327514 -0.0004001 -0.2302944 -0.1633278 
1780000000 -0.7647870  0.1409307  3.2811943  4.1944711  0.0327308 -0.0004200 -0.2316988 -0.1625411 
1790000000 -0.7642112  0.1444990  3.2858963  4.1532421  0.0327106 -0.0004425 -0.2331051 -0.1617329 
1800000000 -0.7636218  0.1480482  3.2904306  4.1123244  0.0326891 -0.0004668 -0.2345045 -0.1609041 
1810000000 -0.7630205  0.1515856  3.2947646  4.0717060  0.0326652 -0.0004919 -0.2358847 -0.1600574 
1820000000 -0.7624094  0.1551169  3.2988715  4.0314020  0.0326382 -0.0005170 -0.2372311 -0.1591987 
1830000000 -0.7617900  0.1586449  3.3027424  3.9914472  0.0326078 -0.0005411 -0.2385298 -0.1583366 
1840000000 -0.7611625  0.1621687  3.3063917  3.9518841  0.0325740 -0.0005637 -0.2397711 -0.1574823 
1850000000 -0.7605257  0.1656839  3.3098552  3.9127468  0.0325370 -0.0005840 -0.2409520 -0.1566486 
1860000000 -0.7598776  0.1691840  3.3131810  3.8740474  0.0324968 -0.0006015 -0.2420787 -0.1558487 
1870000000 -0.7592163  0.1726622  3.3164170  3.8357679  0.0324537 -0.0006155 -0.2431667 -0.1550944 
1880000000 -0.7585414  0.1761128  3.3195982  3.7978610  0.0324082 -0.0006252 -0.2442380 -0.1543944 
1890000000 -0.7578543  0.1795324  3.3227380  3.7602611  0.0323612 -0.0006301 -0.2453182 -0.1537523 
1900000000 -0.7571583  0.1829203  3.3258252  3.7229003  0.0323138 -0.0006298 -0.2464313 -0.1531652 
1910000000 -0.7564581  0.1862778  3.3288299  3.6857268  0.0322674 -0.0006242 -0.2475957 -0.1526240 
1920000000 -0.7557582  0.1896074  3.3317146  3.6487172  0.0322233 -0.0006136 -0.2488220 -0.1521142 
1930000000 -0.7550623  0.1929118  3.3344457  3.6118776  0.0321826 -0.0005986 -0.2501123 -0.1516182 
1940000000 -0.7543721  0.1961938  3.3369992  3.5752361  0.0321460 -0.0005801 -0.2514619 -0.1511181 
1950000000 -0.7536870  0.1994560  3.3393600  3.5388294  0.0321139 -0.0005594 -0.2528614 -0.1505975 
1960000000 -0.7530031  0.2027013  3.3415181  3.5026869  0.0320863 -0.0005380 -0.2542992 -0.1500430 
1970000000 -0.7523140  0.2059329  3.3434638  3.4668218  0.0320633 -0.0005175 -0.2557633 -0.1494447 
1980000000 -0.7516112  0.2091548  3.3451849  3.4312290  0.0320448 -0.0004992 -0.2572425 -0.1487960 
1990000000 -0.7508858  0.2123707  3.3466682  3.3958918  0.0320306 -0.0004845 -0.2587265 -0.1480933 
2000000000 -0.7501299  0.2155837  3.3479032  3.3607923  0.0320204 -0.0004741 -0.2602058 -0.1473356 
2010000000 -0.7493386  0.2187948  3.3488869  3.3259197  0.0320131 -0.0004681 -0.2616718 -0.1465246 
2020000000 -0.7485108  0.2220030  3.3496261  3.2912741  0.0320077 -0.0004661 -0.2631170 -0.1456650 
