Circuit: * C:\users\liam\Mes documents\internship_Nexedi\simu_ltspice\common_emitter\common_emitter.asc

Direct Newton iteration for .op point succeeded.
Semiconductor Device Operating Points:
                        --- Bipolar Transistors ---
Name:       q1
Model:    2n2219a
Ib:       1.10e-03
Ic:       1.60e-01
Vbe:      7.98e-01
Vbc:     -4.04e+00
Vce:      4.84e+00
BetaDC:   1.46e+02
Gm:       4.60e+00
Rpi:      2.45e+01
Rx:       1.00e+01
Ro:       4.86e+02
Cbe:      2.20e-09
Cbc:      3.92e-12
Cjs:      0.00e+00
BetaAC:   1.13e+02
Cbx:      0.00e+00
Ft:       3.32e+08



Date: Wed Jul 03 16:48:20 2019
Total elapsed time: 0.067 seconds.

tnom = 27
temp = 27
method = trap
totiter = 10
traniter = 0
tranpoints = 0
accept = 0
rejected = 0
matrix size = 10
fillins = 0
solver = Normal
Matrix Compiler1: 524 bytes object code size
Matrix Compiler2: 774 bytes object code size
