!TQL9093 Device s-Parameter; Vdd 5.0V, Idd 120mA
!Reference Planes: Outer Edges of the Device Package Pin/Pad; 
!PCB Pads Under the Device On Rogers 4003 Thickness 20 mil Included
!TRL Cal Two Lines: 150 mil and 600 mil PCB Traces On Rogers 4003 Thickness 20 mil
!Agilent Technologies,E5071C,MY46107144,A.09.26
!Date: Mon Mar 11 14:56:48 2019
!Data & Calibration Information:
!Freq	S11:SOLT2(ON)	S21:SOLT2(ON)	S12:SOLT2(ON)	S22:SOLT2(ON)
# Hz S RI R 50
20000000	5.614973e-001	-1.536804e-001	-3.831233e+001	8.234932e+000	1.031451e-002	2.926923e-003	1.209784e-001	-7.054284e-002
30000000	5.415137e-001	-1.668468e-001	-3.679445e+001	9.867550e+000	1.047375e-002	2.592620e-003	1.140479e-001	-6.528418e-002
40000000	5.197657e-001	-1.853078e-001	-3.534922e+001	1.166356e+001	1.074234e-002	2.688023e-003	9.660674e-002	-6.494863e-002
50000000	4.979167e-001	-2.079602e-001	-3.371310e+001	1.320226e+001	1.095858e-002	2.826689e-003	8.656587e-002	-6.424438e-002
60000000	4.768031e-001	-2.275408e-001	-3.209473e+001	1.439712e+001	1.107561e-002	3.046372e-003	7.955308e-002	-6.823417e-002
70000000	4.578703e-001	-2.438022e-001	-3.040884e+001	1.533703e+001	1.126440e-002	3.213026e-003	8.043142e-002	-6.808925e-002
80000000	4.359712e-001	-2.599535e-001	-2.894092e+001	1.617739e+001	1.138029e-002	3.489311e-003	7.107185e-002	-7.088884e-002
90000000	4.159853e-001	-2.730186e-001	-2.745006e+001	1.687902e+001	1.151114e-002	3.693224e-003	6.449794e-002	-6.677739e-002
100000000	3.958094e-001	-2.867641e-001	-2.615787e+001	1.744621e+001	1.166517e-002	3.874724e-003	5.675373e-002	-6.857201e-002
110000000	3.763097e-001	-2.981740e-001	-2.487959e+001	1.789659e+001	1.181336e-002	4.155300e-003	5.469966e-002	-6.935914e-002
120000000	3.575799e-001	-3.079381e-001	-2.368472e+001	1.827930e+001	1.195328e-002	4.314801e-003	4.901750e-002	-6.854008e-002
130000000	3.397297e-001	-3.184691e-001	-2.259679e+001	1.855805e+001	1.209475e-002	4.621963e-003	4.915497e-002	-7.227190e-002
140000000	3.218383e-001	-3.273211e-001	-2.151645e+001	1.884559e+001	1.221998e-002	4.807512e-003	4.501133e-002	-7.034085e-002
150000000	3.043385e-001	-3.347623e-001	-2.051839e+001	1.908907e+001	1.240085e-002	5.117322e-003	4.229339e-002	-7.095467e-002
160000000	2.866259e-001	-3.414712e-001	-1.955088e+001	1.929113e+001	1.255365e-002	5.343085e-003	4.010209e-002	-7.015437e-002
170000000	2.685646e-001	-3.477060e-001	-1.861983e+001	1.949753e+001	1.271151e-002	5.485266e-003	3.440044e-002	-6.956301e-002
180000000	2.526278e-001	-3.541413e-001	-1.775963e+001	1.963515e+001	1.285259e-002	5.733423e-003	3.519006e-002	-7.174568e-002
190000000	2.363719e-001	-3.587443e-001	-1.688668e+001	1.975283e+001	1.301849e-002	5.975182e-003	3.360106e-002	-7.107229e-002
200000000	2.183762e-001	-3.628949e-001	-1.605822e+001	1.988913e+001	1.312014e-002	6.194351e-003	2.860012e-002	-7.291458e-002
210000000	2.027674e-001	-3.666873e-001	-1.525412e+001	1.996781e+001	1.335510e-002	6.357557e-003	2.810625e-002	-7.272525e-002
220000000	1.862417e-001	-3.700493e-001	-1.448295e+001	2.003589e+001	1.353950e-002	6.585231e-003	2.684313e-002	-7.365974e-002
230000000	1.710190e-001	-3.726628e-001	-1.373320e+001	2.008631e+001	1.369115e-002	6.849649e-003	2.630170e-002	-7.435511e-002
240000000	1.542242e-001	-3.740288e-001	-1.299115e+001	2.013729e+001	1.392257e-002	7.095889e-003	2.077990e-002	-7.557348e-002
250000000	1.394626e-001	-3.745642e-001	-1.226845e+001	2.015576e+001	1.405612e-002	7.285385e-003	1.940917e-002	-7.481221e-002
260000000	1.245418e-001	-3.749820e-001	-1.156735e+001	2.014608e+001	1.426997e-002	7.449404e-003	1.744418e-002	-7.433655e-002
270000000	1.092885e-001	-3.750295e-001	-1.090190e+001	2.013301e+001	1.448542e-002	7.663217e-003	1.615726e-002	-7.492746e-002
280000000	9.499847e-002	-3.741435e-001	-1.023693e+001	2.009729e+001	1.475704e-002	7.828452e-003	1.349965e-002	-7.554898e-002
290000000	8.105118e-002	-3.731633e-001	-9.605923e+000	2.005174e+001	1.495244e-002	7.970171e-003	1.218883e-002	-7.560651e-002
300000000	6.660604e-002	-3.709346e-001	-8.972290e+000	2.000144e+001	1.513491e-002	8.188018e-003	8.830560e-003	-7.582187e-002
310000000	5.348010e-002	-3.686698e-001	-8.368339e+000	1.992748e+001	1.533112e-002	8.311474e-003	7.893295e-003	-7.583493e-002
320000000	4.097113e-002	-3.662689e-001	-7.777021e+000	1.983716e+001	1.556050e-002	8.517267e-003	6.698500e-003	-7.520665e-002
330000000	2.810112e-002	-3.631963e-001	-7.209549e+000	1.974339e+001	1.581354e-002	8.676091e-003	3.424176e-003	-7.665074e-002
340000000	1.568063e-002	-3.599198e-001	-6.647266e+000	1.963627e+001	1.600805e-002	8.781000e-003	1.886134e-003	-7.679061e-002
350000000	4.023845e-003	-3.565490e-001	-6.108641e+000	1.951851e+001	1.626818e-002	8.975929e-003	3.920735e-004	-7.713704e-002
360000000	-7.290223e-003	-3.524064e-001	-5.587571e+000	1.938575e+001	1.650824e-002	9.114752e-003	-1.221134e-003	-7.650321e-002
370000000	-1.826595e-002	-3.480827e-001	-5.071921e+000	1.925130e+001	1.670271e-002	9.248092e-003	-2.963644e-003	-7.665396e-002
380000000	-2.899432e-002	-3.433921e-001	-4.580622e+000	1.910762e+001	1.697506e-002	9.348582e-003	-5.473664e-003	-7.635644e-002
390000000	-3.881978e-002	-3.387172e-001	-4.110348e+000	1.895606e+001	1.720190e-002	9.446507e-003	-6.647461e-003	-7.644374e-002
400000000	-4.864686e-002	-3.336516e-001	-3.649822e+000	1.879023e+001	1.741645e-002	9.571889e-003	-8.295476e-003	-7.638441e-002
410000000	-5.808880e-002	-3.282097e-001	-3.206509e+000	1.862610e+001	1.772116e-002	9.699729e-003	-1.022033e-002	-7.651308e-002
420000000	-6.695524e-002	-3.227093e-001	-2.771779e+000	1.845840e+001	1.792297e-002	9.812156e-003	-1.256784e-002	-7.652194e-002
430000000	-7.553414e-002	-3.172813e-001	-2.355450e+000	1.827913e+001	1.812787e-002	9.914910e-003	-1.396541e-002	-7.636166e-002
440000000	-8.336777e-002	-3.115672e-001	-1.954308e+000	1.809787e+001	1.845788e-002	1.002620e-002	-1.550566e-002	-7.546735e-002
450000000	-9.127598e-002	-3.059483e-001	-1.563131e+000	1.791412e+001	1.863376e-002	1.006161e-002	-1.696638e-002	-7.597821e-002
460000000	-9.900395e-002	-2.998179e-001	-1.176519e+000	1.773475e+001	1.890043e-002	1.013530e-002	-1.935555e-002	-7.532958e-002
470000000	-1.060464e-001	-2.940398e-001	-8.168477e-001	1.754722e+001	1.916657e-002	1.021797e-002	-2.062056e-002	-7.511190e-002
480000000	-1.127687e-001	-2.876391e-001	-4.529860e-001	1.735026e+001	1.942937e-002	1.026545e-002	-2.274147e-002	-7.445090e-002
490000000	-1.190714e-001	-2.816175e-001	-1.123038e-001	1.715935e+001	1.968781e-002	1.030468e-002	-2.454867e-002	-7.439578e-002
500000000	-1.252768e-001	-2.759315e-001	2.149479e-001	1.695661e+001	1.991573e-002	1.038303e-002	-2.495416e-002	-7.390617e-002
510000000	-1.310251e-001	-2.696534e-001	5.321508e-001	1.676552e+001	2.014244e-002	1.043555e-002	-2.692435e-002	-7.383738e-002
520000000	-1.363250e-001	-2.636667e-001	8.451603e-001	1.655401e+001	2.044201e-002	1.046401e-002	-2.818279e-002	-7.292775e-002
530000000	-1.416374e-001	-2.575110e-001	1.139309e+000	1.636372e+001	2.062637e-002	1.051172e-002	-2.984262e-002	-7.261364e-002
540000000	-1.464900e-001	-2.510962e-001	1.428745e+000	1.615827e+001	2.089112e-002	1.055668e-002	-3.184798e-002	-7.213461e-002
550000000	-1.513460e-001	-2.454249e-001	1.706163e+000	1.595569e+001	2.116738e-002	1.060938e-002	-3.213652e-002	-7.138744e-002
560000000	-1.558138e-001	-2.392482e-001	1.977324e+000	1.575778e+001	2.142327e-002	1.061305e-002	-3.377676e-002	-7.125630e-002
570000000	-1.601460e-001	-2.331589e-001	2.234464e+000	1.555763e+001	2.170864e-002	1.062164e-002	-3.520783e-002	-7.043125e-002
580000000	-1.640342e-001	-2.271152e-001	2.480739e+000	1.535720e+001	2.193109e-002	1.064389e-002	-3.596166e-002	-6.997152e-002
590000000	-1.677839e-001	-2.211134e-001	2.730238e+000	1.514999e+001	2.216388e-002	1.064768e-002	-3.738966e-002	-6.928576e-002
600000000	-1.711022e-001	-2.149557e-001	2.963819e+000	1.494541e+001	2.246031e-002	1.063995e-002	-3.897401e-002	-6.839938e-002
610000000	-1.742811e-001	-2.093247e-001	3.193534e+000	1.474861e+001	2.265077e-002	1.064947e-002	-3.942082e-002	-6.789475e-002
620000000	-1.773473e-001	-2.032697e-001	3.413144e+000	1.455134e+001	2.286943e-002	1.062888e-002	-4.086670e-002	-6.729151e-002
630000000	-1.801516e-001	-1.972529e-001	3.625496e+000	1.435078e+001	2.308839e-002	1.061160e-002	-4.216773e-002	-6.689111e-002
640000000	-1.824878e-001	-1.913858e-001	3.830847e+000	1.414294e+001	2.335122e-002	1.060517e-002	-4.383053e-002	-6.605380e-002
650000000	-1.851412e-001	-1.857152e-001	4.028830e+000	1.395301e+001	2.360180e-002	1.056486e-002	-4.461979e-002	-6.520656e-002
660000000	-1.872961e-001	-1.801080e-001	4.220331e+000	1.375207e+001	2.387609e-002	1.054049e-002	-4.555802e-002	-6.410559e-002
670000000	-1.893242e-001	-1.746506e-001	4.406454e+000	1.356182e+001	2.406898e-002	1.052420e-002	-4.633248e-002	-6.382064e-002
680000000	-1.909785e-001	-1.688566e-001	4.584117e+000	1.336821e+001	2.435476e-002	1.049384e-002	-4.759863e-002	-6.354506e-002
690000000	-1.925838e-001	-1.636106e-001	4.757743e+000	1.317611e+001	2.459501e-002	1.037608e-002	-4.826048e-002	-6.250045e-002
700000000	-1.940913e-001	-1.581861e-001	4.924912e+000	1.298424e+001	2.478869e-002	1.041005e-002	-4.854888e-002	-6.220928e-002
710000000	-1.953152e-001	-1.531201e-001	5.086507e+000	1.279369e+001	2.502330e-002	1.033263e-002	-4.929183e-002	-6.122853e-002
720000000	-1.964338e-001	-1.480068e-001	5.240898e+000	1.260588e+001	2.528680e-002	1.029686e-002	-5.019988e-002	-6.004363e-002
730000000	-1.973986e-001	-1.429725e-001	5.397061e+000	1.241857e+001	2.549803e-002	1.021790e-002	-5.089259e-002	-5.966259e-002
740000000	-1.984835e-001	-1.378559e-001	5.542153e+000	1.223453e+001	2.569538e-002	1.015966e-002	-5.191359e-002	-5.894138e-002
750000000	-1.992942e-001	-1.328858e-001	5.687419e+000	1.205014e+001	2.593524e-002	1.013318e-002	-5.253938e-002	-5.850284e-002
760000000	-1.999755e-001	-1.282837e-001	5.818699e+000	1.186948e+001	2.615736e-002	1.009465e-002	-5.316751e-002	-5.744132e-002
770000000	-2.004359e-001	-1.235065e-001	5.952669e+000	1.168972e+001	2.642955e-002	9.916376e-003	-5.371927e-002	-5.651974e-002
780000000	-2.008067e-001	-1.189856e-001	6.082923e+000	1.150460e+001	2.660928e-002	9.872624e-003	-5.428761e-002	-5.558324e-002
790000000	-2.010513e-001	-1.143742e-001	6.204795e+000	1.132588e+001	2.687879e-002	9.782398e-003	-5.484292e-002	-5.534376e-002
800000000	-2.012941e-001	-1.099188e-001	6.330654e+000	1.115174e+001	2.705506e-002	9.732495e-003	-5.538077e-002	-5.486279e-002
810000000	-2.011826e-001	-1.056058e-001	6.441983e+000	1.096960e+001	2.725817e-002	9.625898e-003	-5.614001e-002	-5.387835e-002
820000000	-2.010725e-001	-1.014461e-001	6.546342e+000	1.080264e+001	2.746629e-002	9.542449e-003	-5.667300e-002	-5.332168e-002
830000000	-2.010804e-001	-9.729562e-002	6.663168e+000	1.063033e+001	2.765232e-002	9.475356e-003	-5.704586e-002	-5.244670e-002
840000000	-2.010563e-001	-9.311733e-002	6.768662e+000	1.045981e+001	2.792564e-002	9.349655e-003	-5.738249e-002	-5.220509e-002
850000000	-2.004352e-001	-8.935459e-002	6.869595e+000	1.029218e+001	2.810745e-002	9.278086e-003	-5.776351e-002	-5.104045e-002
860000000	-2.000360e-001	-8.535346e-002	6.969868e+000	1.012076e+001	2.829114e-002	9.174216e-003	-5.815164e-002	-5.084570e-002
870000000	-1.996846e-001	-8.172645e-002	7.067261e+000	9.958238e+000	2.849272e-002	9.037410e-003	-5.843189e-002	-4.964764e-002
880000000	-1.991448e-001	-7.808778e-002	7.160077e+000	9.796773e+000	2.871876e-002	8.935916e-003	-5.834691e-002	-4.916373e-002
890000000	-1.984862e-001	-7.452216e-002	7.252167e+000	9.634887e+000	2.886136e-002	8.768298e-003	-5.869369e-002	-4.836975e-002
900000000	-1.980043e-001	-7.097696e-002	7.333499e+000	9.471849e+000	2.909930e-002	8.647961e-003	-5.904311e-002	-4.814475e-002
910000000	-1.972489e-001	-6.768877e-002	7.421534e+000	9.312058e+000	2.932776e-002	8.538959e-003	-5.925977e-002	-4.723718e-002
920000000	-1.965414e-001	-6.427524e-002	7.495475e+000	9.148925e+000	2.949253e-002	8.373914e-003	-5.946632e-002	-4.705342e-002
930000000	-1.957503e-001	-6.119141e-002	7.579904e+000	8.993468e+000	2.971777e-002	8.314201e-003	-5.949636e-002	-4.591126e-002
940000000	-1.948893e-001	-5.808716e-002	7.656426e+000	8.836229e+000	2.985633e-002	8.138323e-003	-5.986835e-002	-4.536096e-002
950000000	-1.940356e-001	-5.507172e-002	7.726914e+000	8.678222e+000	3.006317e-002	8.009415e-003	-5.966439e-002	-4.459830e-002
960000000	-1.931931e-001	-5.200622e-002	7.803619e+000	8.530061e+000	3.025329e-002	7.837130e-003	-5.979582e-002	-4.354848e-002
970000000	-1.921769e-001	-4.925904e-002	7.868969e+000	8.380410e+000	3.039249e-002	7.696505e-003	-6.010803e-002	-4.352316e-002
980000000	-1.911906e-001	-4.638711e-002	7.936540e+000	8.226994e+000	3.065675e-002	7.584700e-003	-6.007439e-002	-4.299570e-002
990000000	-1.901255e-001	-4.369885e-002	8.005931e+000	8.079659e+000	3.075343e-002	7.420961e-003	-6.044632e-002	-4.218035e-002
1000000000	-1.888740e-001	-4.119408e-002	8.062369e+000	7.931934e+000	3.092923e-002	7.267666e-003	-6.038182e-002	-4.149582e-002
1010000000	-1.877204e-001	-3.848544e-002	8.126777e+000	7.787689e+000	3.110807e-002	7.144092e-003	-6.077088e-002	-4.085602e-002
1020000000	-1.866290e-001	-3.617236e-002	8.185541e+000	7.639818e+000	3.128969e-002	6.944877e-003	-6.038196e-002	-4.057280e-002
1030000000	-1.853924e-001	-3.368483e-002	8.244438e+000	7.498949e+000	3.143433e-002	6.751715e-003	-6.047856e-002	-4.023799e-002
1040000000	-1.841284e-001	-3.150609e-002	8.300134e+000	7.355095e+000	3.160478e-002	6.629246e-003	-6.043113e-002	-3.978388e-002
1050000000	-1.827640e-001	-2.916402e-002	8.351982e+000	7.210640e+000	3.175635e-002	6.455676e-003	-6.056894e-002	-3.892934e-002
1060000000	-1.814496e-001	-2.716933e-002	8.403942e+000	7.071795e+000	3.188730e-002	6.296827e-003	-6.050900e-002	-3.836785e-002
1070000000	-1.800506e-001	-2.512796e-002	8.454004e+000	6.934609e+000	3.207003e-002	6.119898e-003	-6.019525e-002	-3.808504e-002
1080000000	-1.786911e-001	-2.316021e-002	8.507528e+000	6.795437e+000	3.224956e-002	5.987134e-003	-6.021851e-002	-3.743471e-002
1090000000	-1.774824e-001	-2.141565e-002	8.553161e+000	6.657367e+000	3.240704e-002	5.769933e-003	-6.017791e-002	-3.679513e-002
1100000000	-1.759642e-001	-1.954818e-002	8.596693e+000	6.521007e+000	3.251182e-002	5.563782e-003	-6.031394e-002	-3.619316e-002
1110000000	-1.746820e-001	-1.781933e-002	8.644083e+000	6.386951e+000	3.261934e-002	5.402426e-003	-5.997682e-002	-3.618856e-002
1120000000	-1.732975e-001	-1.620494e-002	8.681345e+000	6.249352e+000	3.273260e-002	5.227146e-003	-5.972677e-002	-3.535933e-002
1130000000	-1.720154e-001	-1.459682e-002	8.718766e+000	6.117882e+000	3.290400e-002	4.978340e-003	-5.953599e-002	-3.516348e-002
1140000000	-1.707185e-001	-1.310312e-002	8.760199e+000	5.985726e+000	3.308014e-002	4.874773e-003	-5.902490e-002	-3.461320e-002
1150000000	-1.693436e-001	-1.156534e-002	8.804666e+000	5.852855e+000	3.320365e-002	4.620180e-003	-5.904244e-002	-3.442244e-002
1160000000	-1.680508e-001	-1.022194e-002	8.836757e+000	5.725880e+000	3.329194e-002	4.446399e-003	-5.885284e-002	-3.408869e-002
1170000000	-1.665938e-001	-8.985197e-003	8.872995e+000	5.597383e+000	3.341531e-002	4.289386e-003	-5.879584e-002	-3.352769e-002
1180000000	-1.652645e-001	-7.756526e-003	8.906841e+000	5.466246e+000	3.354814e-002	4.030268e-003	-5.805434e-002	-3.329498e-002
1190000000	-1.638017e-001	-6.464895e-003	8.934889e+000	5.341143e+000	3.366062e-002	3.867504e-003	-5.816131e-002	-3.277901e-002
1200000000	-1.625447e-001	-5.318890e-003	8.976559e+000	5.216953e+000	3.378290e-002	3.669939e-003	-5.757000e-002	-3.246633e-002
1210000000	-1.611522e-001	-4.333821e-003	9.003262e+000	5.092324e+000	3.385763e-002	3.460435e-003	-5.711315e-002	-3.201138e-002
1220000000	-1.596233e-001	-3.297004e-003	9.030236e+000	4.969052e+000	3.401329e-002	3.243500e-003	-5.719849e-002	-3.173939e-002
1230000000	-1.582510e-001	-2.440364e-003	9.057886e+000	4.843721e+000	3.409028e-002	3.083832e-003	-5.688808e-002	-3.099334e-002
1240000000	-1.568850e-001	-1.534694e-003	9.092128e+000	4.721289e+000	3.416374e-002	2.838975e-003	-5.623181e-002	-3.095947e-002
1250000000	-1.553921e-001	-7.097797e-004	9.114213e+000	4.597452e+000	3.422555e-002	2.651924e-003	-5.612245e-002	-3.066332e-002
1260000000	-1.540859e-001	-3.351672e-005	9.144073e+000	4.476423e+000	3.435168e-002	2.442876e-003	-5.573515e-002	-3.059742e-002
1270000000	-1.528433e-001	8.382164e-004	9.169285e+000	4.361670e+000	3.445750e-002	2.237087e-003	-5.558520e-002	-3.052081e-002
1280000000	-1.515440e-001	1.303815e-003	9.184763e+000	4.236529e+000	3.458648e-002	2.031905e-003	-5.502715e-002	-3.004981e-002
1290000000	-1.502811e-001	2.024976e-003	9.216682e+000	4.119096e+000	3.462308e-002	1.801280e-003	-5.462055e-002	-2.984406e-002
1300000000	-1.489827e-001	2.595624e-003	9.230822e+000	3.997179e+000	3.473730e-002	1.559017e-003	-5.451361e-002	-2.975323e-002
1310000000	-1.477798e-001	3.083648e-003	9.252905e+000	3.885502e+000	3.473485e-002	1.355911e-003	-5.373765e-002	-2.939101e-002
1320000000	-1.465355e-001	3.696547e-003	9.276413e+000	3.766857e+000	3.485919e-002	1.189549e-003	-5.365878e-002	-2.950945e-002
1330000000	-1.452923e-001	3.994992e-003	9.293670e+000	3.643822e+000	3.493241e-002	9.282520e-004	-5.321564e-002	-2.909420e-002
1340000000	-1.441397e-001	4.274078e-003	9.311351e+000	3.533748e+000	3.504509e-002	6.358934e-004	-5.240726e-002	-2.892095e-002
1350000000	-1.429646e-001	4.522639e-003	9.330008e+000	3.419278e+000	3.507265e-002	4.893291e-004	-5.195323e-002	-2.913957e-002
1360000000	-1.417124e-001	4.935801e-003	9.347535e+000	3.305017e+000	3.509185e-002	1.997887e-004	-5.118862e-002	-2.898277e-002
1370000000	-1.405771e-001	5.145622e-003	9.362361e+000	3.190941e+000	3.515845e-002	4.085546e-006	-5.074657e-002	-2.872973e-002
1380000000	-1.395095e-001	5.197350e-003	9.375392e+000	3.075281e+000	3.528565e-002	-1.855471e-004	-5.006926e-002	-2.876652e-002
1390000000	-1.383344e-001	5.354567e-003	9.393792e+000	2.965585e+000	3.530421e-002	-4.431183e-004	-4.974316e-002	-2.880930e-002
1400000000	-1.372546e-001	5.392439e-003	9.401693e+000	2.850684e+000	3.536842e-002	-6.810485e-004	-4.910015e-002	-2.849178e-002
1410000000	-1.361574e-001	5.521734e-003	9.417998e+000	2.738529e+000	3.539015e-002	-8.835618e-004	-4.891716e-002	-2.856127e-002
1420000000	-1.350634e-001	5.336449e-003	9.422388e+000	2.632952e+000	3.539238e-002	-1.083502e-003	-4.811424e-002	-2.835003e-002
1430000000	-1.340372e-001	5.475936e-003	9.442725e+000	2.518297e+000	3.542577e-002	-1.370225e-003	-4.734537e-002	-2.859062e-002
1440000000	-1.330532e-001	5.371820e-003	9.450065e+000	2.408560e+000	3.551884e-002	-1.551462e-003	-4.688747e-002	-2.816088e-002
1450000000	-1.321085e-001	5.227121e-003	9.456769e+000	2.301588e+000	3.555631e-002	-1.816579e-003	-4.645362e-002	-2.833285e-002
1460000000	-1.311151e-001	5.120358e-003	9.468428e+000	2.190552e+000	3.559121e-002	-2.055236e-003	-4.594140e-002	-2.859436e-002
1470000000	-1.303354e-001	4.811364e-003	9.469575e+000	2.082212e+000	3.556823e-002	-2.320975e-003	-4.574160e-002	-2.873180e-002
1480000000	-1.294548e-001	4.634475e-003	9.482653e+000	1.974549e+000	3.561010e-002	-2.539315e-003	-4.474220e-002	-2.852376e-002
1490000000	-1.286606e-001	4.457611e-003	9.485615e+000	1.863869e+000	3.564434e-002	-2.765980e-003	-4.426985e-002	-2.827015e-002
1500000000	-1.278243e-001	4.211448e-003	9.492442e+000	1.756650e+000	3.562228e-002	-2.987916e-003	-4.372975e-002	-2.873211e-002
1510000000	-1.270419e-001	3.971007e-003	9.502331e+000	1.649175e+000	3.565193e-002	-3.202123e-003	-4.323563e-002	-2.879208e-002
1520000000	-1.261571e-001	3.551326e-003	9.501033e+000	1.547414e+000	3.563056e-002	-3.455726e-003	-4.225473e-002	-2.902327e-002
1530000000	-1.254752e-001	3.244146e-003	9.508751e+000	1.439355e+000	3.562801e-002	-3.701047e-003	-4.166922e-002	-2.898172e-002
1540000000	-1.249144e-001	2.805616e-003	9.509565e+000	1.330161e+000	3.566031e-002	-3.932066e-003	-4.098713e-002	-2.942639e-002
