!Agilent Technologies,E8358A,US41080487,A.07.50.67
!Agilent E8358A: A.07.50.67
!Date: Monday, June 09, 2014 23:17:55
!Correction: S11(Full 2 Port(1,2)) 
!S21(Full 2 Port(1,2)) 
!S12(Full 2 Port(1,2)) 
!S22(Full 2 Port(1,2)) 
!S2P File: Measurements: S11, S21, S12, S22:
# Hz S  RI   R 50
10000000 9.178989e-001 -3.912008e-001 -7.654396e+000 -9.971242e-001 6.112340e-004 5.594736e-004 5.759910e-001 4.160828e-002
20000000 7.710573e-001 -5.073473e-001 -5.537750e+000 8.835856e-001 8.196988e-004 9.596365e-004 5.777610e-001 -1.124457e-002
30000000 6.039358e-001 -6.371677e-001 -6.677602e+000 2.288709e+000 1.090481e-003 1.239378e-003 5.637953e-001 -2.583636e-002
40000000 4.113961e-001 -7.054464e-001 -6.829417e+000 3.578187e+000 1.322049e-003 1.453605e-003 5.688713e-001 -2.803992e-002
50000000 2.475381e-001 -7.204917e-001 -6.885421e+000 4.384716e+000 1.549471e-003 1.600632e-003 5.716917e-001 -3.880306e-002
60000000 1.169223e-001 -7.036380e-001 -6.772079e+000 4.825122e+000 1.706666e-003 1.690681e-003 5.696034e-001 -4.747177e-002
70000000 1.214042e-002 -6.765612e-001 -6.611279e+000 5.009566e+000 1.843679e-003 1.796104e-003 5.671687e-001 -5.592957e-002
80000000 -7.320244e-002 -6.400126e-001 -6.415742e+000 5.040180e+000 1.965418e-003 1.882152e-003 5.666921e-001 -6.373198e-002
90000000 -1.411030e-001 -6.007683e-001 -6.129512e+000 4.930480e+000 2.065631e-003 1.963062e-003 5.636007e-001 -7.228396e-002
100000000 -1.957084e-001 -5.600045e-001 -5.877467e+000 4.790623e+000 2.132137e-003 2.032872e-003 5.629401e-001 -7.894123e-002
110000000 -2.396813e-001 -5.217147e-001 -5.685984e+000 4.644647e+000 2.203218e-003 2.122406e-003 5.606949e-001 -8.581519e-002
120000000 -2.745696e-001 -4.848805e-001 -5.533503e+000 4.533245e+000 2.255909e-003 2.210232e-003 5.606466e-001 -9.422111e-002
130000000 -3.024090e-001 -4.510687e-001 -5.349974e+000 4.396715e+000 2.308829e-003 2.310799e-003 5.579665e-001 -1.007263e-001
140000000 -3.261123e-001 -4.198877e-001 -5.194893e+000 4.237284e+000 2.346257e-003 2.408321e-003 5.560030e-001 -1.072824e-001
150000000 -3.456393e-001 -3.901691e-001 -5.070365e+000 4.093664e+000 2.390237e-003 2.509248e-003 5.542408e-001 -1.145830e-001
160000000 -3.618876e-001 -3.632691e-001 -4.953392e+000 3.968952e+000 2.424025e-003 2.620766e-003 5.538341e-001 -1.213112e-001
170000000 -3.752190e-001 -3.381657e-001 -4.832938e+000 3.829011e+000 2.464272e-003 2.720084e-003 5.521135e-001 -1.285737e-001
180000000 -3.867279e-001 -3.152537e-001 -4.735473e+000 3.702805e+000 2.507247e-003 2.837960e-003 5.505394e-001 -1.344672e-001
190000000 -3.958958e-001 -2.935250e-001 -4.636903e+000 3.575664e+000 2.530184e-003 2.943085e-003 5.487238e-001 -1.412457e-001
200000000 -4.039623e-001 -2.731969e-001 -4.561934e+000 3.469334e+000 2.583817e-003 3.059777e-003 5.488527e-001 -1.480995e-001
210000000 -4.105547e-001 -2.544101e-001 -4.470414e+000 3.368547e+000 2.610057e-003 3.173243e-003 5.464697e-001 -1.541562e-001
220000000 -4.160325e-001 -2.364487e-001 -4.388679e+000 3.274372e+000 2.644683e-003 3.291724e-003 5.451083e-001 -1.615134e-001
230000000 -4.207869e-001 -2.197119e-001 -4.333549e+000 3.192079e+000 2.677021e-003 3.415159e-003 5.436896e-001 -1.677091e-001
240000000 -4.248275e-001 -2.039216e-001 -4.286063e+000 3.129686e+000 2.715575e-003 3.531860e-003 5.425314e-001 -1.742056e-001
250000000 -4.282261e-001 -1.890564e-001 -4.244606e+000 3.070344e+000 2.748253e-003 3.646809e-003 5.416015e-001 -1.807518e-001
260000000 -4.310013e-001 -1.748522e-001 -4.196202e+000 3.016026e+000 2.787171e-003 3.768751e-003 5.398455e-001 -1.879374e-001
270000000 -4.333593e-001 -1.613494e-001 -4.148530e+000 2.958206e+000 2.827505e-003 3.895586e-003 5.374703e-001 -1.941823e-001
280000000 -4.353289e-001 -1.484680e-001 -4.107057e+000 2.907332e+000 2.883112e-003 4.024036e-003 5.361943e-001 -2.005572e-001
290000000 -4.369195e-001 -1.363708e-001 -4.065652e+000 2.868174e+000 2.919417e-003 4.147759e-003 5.334652e-001 -2.070247e-001
300000000 -4.383579e-001 -1.249206e-001 -4.025904e+000 2.825404e+000 2.965068e-003 4.267272e-003 5.314690e-001 -2.132216e-001
310000000 -4.392239e-001 -1.137296e-001 -4.010908e+000 2.796597e+000 3.010604e-003 4.395258e-003 5.290337e-001 -2.191832e-001
320000000 -4.398545e-001 -1.028870e-001 -3.984799e+000 2.771169e+000 3.041463e-003 4.512031e-003 5.265149e-001 -2.254232e-001
330000000 -4.403998e-001 -9.255854e-002 -3.971767e+000 2.746647e+000 3.104222e-003 4.643303e-003 5.244759e-001 -2.322126e-001
340000000 -4.404620e-001 -8.248653e-002 -3.946399e+000 2.728403e+000 3.144620e-003 4.777580e-003 5.225550e-001 -2.386785e-001
350000000 -4.404406e-001 -7.288756e-002 -3.914144e+000 2.698879e+000 3.197535e-003 4.905179e-003 5.205715e-001 -2.446525e-001
360000000 -4.402910e-001 -6.374398e-002 -3.897130e+000 2.673234e+000 3.237878e-003 5.021477e-003 5.181577e-001 -2.512533e-001
370000000 -4.399316e-001 -5.485401e-002 -3.879959e+000 2.668432e+000 3.298115e-003 5.153087e-003 5.162246e-001 -2.574287e-001
380000000 -4.393537e-001 -4.631556e-002 -3.856269e+000 2.659513e+000 3.345771e-003 5.273266e-003 5.137673e-001 -2.637951e-001
390000000 -4.385369e-001 -3.818901e-002 -3.834792e+000 2.643495e+000 3.394814e-003 5.401542e-003 5.113826e-001 -2.698668e-001
400000000 -4.378597e-001 -3.020969e-002 -3.815398e+000 2.647480e+000 3.446111e-003 5.531096e-003 5.085681e-001 -2.759281e-001
410000000 -4.369267e-001 -2.250296e-002 -3.804058e+000 2.637584e+000 3.497841e-003 5.648643e-003 5.054944e-001 -2.816646e-001
420000000 -4.359551e-001 -1.514886e-002 -3.802034e+000 2.643721e+000 3.550474e-003 5.781136e-003 5.032340e-001 -2.874102e-001
430000000 -4.347472e-001 -7.707404e-003 -3.774741e+000 2.636995e+000 3.611334e-003 5.907878e-003 5.008249e-001 -2.929388e-001
440000000 -4.333749e-001 -6.525302e-004 -3.761652e+000 2.623721e+000 3.672561e-003 6.035201e-003 4.986387e-001 -2.989579e-001
450000000 -4.320247e-001 6.132240e-003 -3.748367e+000 2.622282e+000 3.738628e-003 6.174173e-003 4.959946e-001 -3.045003e-001
460000000 -4.306606e-001 1.280546e-002 -3.730237e+000 2.625796e+000 3.804218e-003 6.296642e-003 4.934654e-001 -3.099803e-001
470000000 -4.289731e-001 1.927872e-002 -3.727696e+000 2.627741e+000 3.864481e-003 6.428585e-003 4.908980e-001 -3.158268e-001
480000000 -4.272697e-001 2.547900e-002 -3.715814e+000 2.637255e+000 3.929726e-003 6.564147e-003 4.885881e-001 -3.213031e-001
490000000 -4.256047e-001 3.164547e-002 3.703542e+000 -2.631102e+000 -4.008839e-003 -6.698248e-003 4.855444e-001 -3.269799e-001
500000000 -4.239125e-001 3.765010e-002 3.699036e+000 -2.638061e+000 -4.074971e-003 -6.813109e-003 4.821231e-001 -3.325494e-001
510000000 -4.221368e-001 4.378375e-002 -3.682855e+000 2.656516e+000 4.147911e-003 6.932981e-003 4.795199e-001 -3.383677e-001
520000000 -4.202252e-001 4.985633e-002 -3.663189e+000 2.658232e+000 4.224855e-003 7.063645e-003 4.763550e-001 -3.441625e-001
530000000 -4.180314e-001 5.574872e-002 -3.645831e+000 2.666443e+000 4.301591e-003 7.199314e-003 4.733980e-001 -3.497091e-001
540000000 -4.157342e-001 6.150408e-002 -3.626972e+000 2.678169e+000 4.377679e-003 7.317402e-003 4.698779e-001 -3.554479e-001
550000000 -4.133546e-001 6.673235e-002 -3.623229e+000 2.691037e+000 4.471627e-003 7.442045e-003 4.663279e-001 -3.613806e-001
560000000 -4.111890e-001 7.203311e-002 -3.614309e+000 2.716905e+000 4.551428e-003 7.565438e-003 4.636478e-001 -3.669167e-001
570000000 -4.084302e-001 7.701991e-002 -3.594297e+000 2.716349e+000 4.631236e-003 7.694895e-003 4.607027e-001 -3.727513e-001
580000000 -4.058843e-001 8.164200e-002 -3.592751e+000 2.725255e+000 4.717246e-003 7.814271e-003 4.571584e-001 -3.783843e-001
590000000 -4.034079e-001 8.628736e-002 -3.573723e+000 2.735415e+000 4.806679e-003 7.943110e-003 4.533501e-001 -3.837810e-001
600000000 -4.010082e-001 9.078649e-002 -3.565126e+000 2.740226e+000 4.900750e-003 8.069629e-003 4.503069e-001 -3.889419e-001
610000000 -3.986576e-001 9.547639e-002 -3.555253e+000 2.755585e+000 5.001057e-003 8.193307e-003 4.467790e-001 -3.945731e-001
620000000 -3.959185e-001 9.991036e-002 -3.541277e+000 2.761724e+000 5.094783e-003 8.313835e-003 4.433442e-001 -3.996644e-001
630000000 -3.934823e-001 1.038960e-001 -3.540896e+000 2.765760e+000 5.183538e-003 8.444083e-003 4.396012e-001 -4.049978e-001
640000000 -3.914338e-001 1.082952e-001 -3.529564e+000 2.793908e+000 5.287122e-003 8.564426e-003 4.355498e-001 -4.103603e-001
650000000 -3.891189e-001 1.128592e-001 -3.520361e+000 2.807958e+000 5.388149e-003 8.695418e-003 4.328945e-001 -4.158008e-001
660000000 -3.863470e-001 1.171100e-001 -3.518756e+000 2.823563e+000 5.487577e-003 8.830540e-003 4.292956e-001 -4.211310e-001
670000000 -3.838296e-001 1.215878e-001 -3.503893e+000 2.846774e+000 5.605485e-003 8.953666e-003 4.258071e-001 -4.264076e-001
680000000 -3.807328e-001 1.259402e-001 -3.488611e+000 2.857883e+000 5.722588e-003 9.071185e-003 4.219999e-001 -4.320293e-001
690000000 -3.775603e-001 1.299209e-001 -3.469214e+000 2.883921e+000 5.837513e-003 9.181832e-003 4.187868e-001 -4.371290e-001
700000000 -3.742116e-001 1.337046e-001 -3.428891e+000 2.898761e+000 5.938559e-003 9.295849e-003 4.151414e-001 -4.421239e-001
710000000 -3.708142e-001 1.369266e-001 -3.411145e+000 2.897563e+000 6.046458e-003 9.412849e-003 4.107203e-001 -4.469705e-001
720000000 -3.680591e-001 1.400193e-001 -3.405682e+000 2.933893e+000 6.152991e-003 9.529554e-003 4.065767e-001 -4.512661e-001
730000000 -3.651084e-001 1.431599e-001 -3.393843e+000 2.955436e+000 6.278273e-003 9.632223e-003 4.027317e-001 -4.561033e-001
740000000 -3.623144e-001 1.462034e-001 -3.392223e+000 2.979444e+000 6.387008e-003 9.741670e-003 3.985802e-001 -4.611067e-001
750000000 -3.594910e-001 1.494802e-001 -3.387158e+000 2.971715e+000 6.498190e-003 9.870000e-003 3.946652e-001 -4.660725e-001
760000000 -3.567201e-001 1.526938e-001 -3.373048e+000 2.978348e+000 6.623667e-003 9.999454e-003 3.906748e-001 -4.707665e-001
770000000 -3.539751e-001 1.558451e-001 -3.367278e+000 3.007924e+000 6.756163e-003 1.011733e-002 3.871628e-001 -4.756660e-001
780000000 -3.511369e-001 1.591852e-001 -3.343028e+000 3.043371e+000 6.897050e-003 1.023375e-002 3.832525e-001 -4.804986e-001
790000000 -3.479270e-001 1.622772e-001 -3.328259e+000 3.052289e+000 7.037940e-003 1.033745e-002 3.791310e-001 -4.853020e-001
800000000 -3.450790e-001 1.652582e-001 -3.314520e+000 3.079733e+000 7.161272e-003 1.044341e-002 3.745578e-001 -4.895464e-001
810000000 -3.418750e-001 1.683671e-001 -3.287868e+000 3.091568e+000 7.302589e-003 1.055322e-002 3.701148e-001 -4.944466e-001
820000000 -3.389010e-001 1.712324e-001 -3.282233e+000 3.124722e+000 7.445214e-003 1.065980e-002 3.660741e-001 -4.989224e-001
830000000 -3.356715e-001 1.742674e-001 -3.253489e+000 3.162376e+000 7.587063e-003 1.077188e-002 3.615904e-001 -5.036745e-001
840000000 -3.322469e-001 1.768242e-001 -3.244003e+000 3.185748e+000 7.742046e-003 1.087021e-002 3.570628e-001 -5.083229e-001
850000000 -3.289408e-001 1.793204e-001 -3.235623e+000 3.218390e+000 7.877742e-003 1.096350e-002 3.523655e-001 -5.127354e-001
860000000 -3.256941e-001 1.818799e-001 -3.200866e+000 3.248121e+000 8.037401e-003 1.107983e-002 3.483648e-001 -5.176421e-001
870000000 -3.221930e-001 1.843423e-001 -3.172543e+000 3.257262e+000 8.199625e-003 1.117766e-002 3.440413e-001 -5.224798e-001
880000000 -3.188808e-001 1.868741e-001 -3.138859e+000 3.287337e+000 8.357746e-003 1.127555e-002 3.394514e-001 -5.272111e-001
890000000 -3.154065e-001 1.892677e-001 -3.113704e+000 3.309870e+000 8.515812e-003 1.136339e-002 3.340245e-001 -5.315880e-001
900000000 -3.119666e-001 1.912549e-001 -3.111934e+000 3.346179e+000 8.686368e-003 1.143001e-002 3.288117e-001 -5.355427e-001
910000000 -3.086473e-001 1.935736e-001 -3.081535e+000 3.395091e+000 8.851741e-003 1.151081e-002 3.238768e-001 -5.397246e-001
920000000 -3.047991e-001 1.957160e-001 -3.051187e+000 3.400477e+000 9.014188e-003 1.159684e-002 3.188609e-001 -5.433835e-001
930000000 -3.014123e-001 1.975269e-001 -3.033386e+000 3.424105e+000 9.174145e-003 1.166905e-002 3.140238e-001 -5.475844e-001
940000000 -2.979918e-001 1.996012e-001 -3.000913e+000 3.446595e+000 9.320648e-003 1.175827e-002 3.084187e-001 -5.511544e-001
950000000 -2.945297e-001 2.012680e-001 -2.996150e+000 3.463178e+000 9.486488e-003 1.184831e-002 3.037862e-001 -5.551741e-001
960000000 -2.914494e-001 2.030275e-001 -2.978493e+000 3.492938e+000 9.671955e-003 1.194071e-002 2.984169e-001 -5.598896e-001
970000000 -2.877248e-001 2.048599e-001 -2.948547e+000 3.488026e+000 9.844372e-003 1.200796e-002 2.928213e-001 -5.636907e-001
980000000 -2.843513e-001 2.062002e-001 -2.945239e+000 3.502069e+000 1.001843e-002 1.208769e-002 2.871262e-001 -5.674360e-001
990000000 -2.811525e-001 2.079102e-001 -2.921810e+000 3.537421e+000 1.019063e-002 1.215479e-002 2.811701e-001 -5.706472e-001
1000000000 -2.775795e-001 2.092091e-001 -2.909297e+000 3.560608e+000 1.037349e-002 1.223020e-002 2.761078e-001 -5.744611e-001
1010000000 -2.743018e-001 2.103143e-001 -2.902794e+000 3.595487e+000 1.055415e-002 1.231216e-002 2.702730e-001 -5.776749e-001
1020000000 -2.707976e-001 2.118313e-001 -2.865404e+000 3.620783e+000 1.074291e-002 1.236653e-002 2.648089e-001 -5.810513e-001
1030000000 -2.670228e-001 2.129767e-001 -2.841237e+000 3.625147e+000 1.092299e-002 1.241882e-002 2.589239e-001 -5.841547e-001
1040000000 -2.636301e-001 2.142117e-001 -2.804968e+000 3.654987e+000 1.110970e-002 1.247143e-002 2.535212e-001 -5.877870e-001
1050000000 -2.598922e-001 2.155252e-001 -2.766769e+000 3.678593e+000 1.129271e-002 1.253874e-002 2.486659e-001 -5.910341e-001
1060000000 -2.564075e-001 2.162543e-001 -2.748730e+000 3.707150e+000 1.149173e-002 1.261762e-002 2.431720e-001 -5.944821e-001
1070000000 -2.530496e-001 2.174380e-001 -2.708049e+000 3.742208e+000 1.168721e-002 1.265193e-002 2.371761e-001 -5.971199e-001
1080000000 -2.491879e-001 2.182327e-001 -2.677963e+000 3.757341e+000 1.187171e-002 1.270628e-002 2.318597e-001 -5.996445e-001
1090000000 -2.459630e-001 2.187483e-001 -2.659416e+000 3.800190e+000 1.208763e-002 1.275509e-002 2.266004e-001 -6.030064e-001
1100000000 -2.425225e-001 2.197291e-001 -2.616804e+000 3.841158e+000 1.226867e-002 1.279705e-002 2.209682e-001 -6.052946e-001
1110000000 -2.387464e-001 2.202184e-001 -2.592733e+000 3.860899e+000 1.248424e-002 1.286542e-002 2.160645e-001 -6.083036e-001
1120000000 -2.355256e-001 2.207219e-001 -2.564767e+000 3.900362e+000 1.269012e-002 1.288812e-002 2.101994e-001 -6.104831e-001
1130000000 -2.318647e-001 2.214837e-001 -2.516319e+000 3.913625e+000 1.291084e-002 1.291358e-002 2.042754e-001 -6.135361e-001
1140000000 -2.284061e-001 2.216759e-001 -2.495171e+000 3.936380e+000 1.311215e-002 1.294781e-002 1.989474e-001 -6.161320e-001
1150000000 -2.249143e-001 2.226006e-001 -2.444849e+000 3.964414e+000 1.333143e-002 1.296964e-002 1.928440e-001 -6.187029e-001
1160000000 -2.211920e-001 2.229152e-001 -2.418061e+000 3.985500e+000 1.353433e-002 1.298460e-002 1.870767e-001 -6.208594e-001
1170000000 -2.178279e-001 2.229044e-001 -2.400662e+000 4.014576e+000 1.372093e-002 1.300816e-002 1.813727e-001 -6.222752e-001
1180000000 -2.145023e-001 2.232687e-001 -2.362365e+000 4.051949e+000 1.395428e-002 1.303835e-002 1.764549e-001 -6.249702e-001
1190000000 -2.107823e-001 2.233494e-001 -2.330544e+000 4.066636e+000 1.414325e-002 1.304397e-002 1.705614e-001 -6.270963e-001
1200000000 -2.075292e-001 2.231776e-001 -2.308841e+000 4.096586e+000 1.434693e-002 1.308581e-002 1.654620e-001 -6.288496e-001
1210000000 -2.037700e-001 2.233221e-001 -2.270981e+000 4.110287e+000 1.454977e-002 1.312097e-002 1.601323e-001 -6.306277e-001
1220000000 -2.005417e-001 2.227990e-001 -2.259067e+000 4.134111e+000 1.477743e-002 1.315677e-002 1.543545e-001 -6.326779e-001
1230000000 -1.974655e-001 2.230799e-001 -2.210049e+000 4.164372e+000 1.502738e-002 1.317899e-002 1.494010e-001 -6.353185e-001
1240000000 -1.937401e-001 2.229564e-001 -2.173272e+000 4.169262e+000 1.526429e-002 1.318049e-002 1.430711e-001 -6.376342e-001
1250000000 -1.900866e-001 2.225412e-001 -2.148768e+000 4.186588e+000 1.549639e-002 1.320197e-002 1.371535e-001 -6.385745e-001
1260000000 -1.871092e-001 2.221994e-001 -2.119471e+000 4.228045e+000 1.573621e-002 1.321075e-002 1.322327e-001 -6.396548e-001
1270000000 -1.838996e-001 2.217268e-001 -2.087388e+000 4.265325e+000 1.601076e-002 1.320098e-002 1.274888e-001 -6.422199e-001
1280000000 -1.809930e-001 2.210427e-001 -2.052669e+000 4.300982e+000 1.625530e-002 1.320458e-002 1.225053e-001 -6.441727e-001
1290000000 -1.773880e-001 2.204264e-001 -2.006347e+000 4.303557e+000 1.654911e-002 1.320312e-002 1.167188e-001 -6.469417e-001
1300000000 -1.745398e-001 2.193997e-001 -1.990340e+000 4.327037e+000 1.683993e-002 1.313603e-002 1.094188e-001 -6.486657e-001
1310000000 -1.713240e-001 2.194282e-001 -1.935036e+000 4.356190e+000 1.708134e-002 1.305528e-002 1.032048e-001 -6.484702e-001
1320000000 -1.677659e-001 2.188862e-001 -1.893464e+000 4.372785e+000 1.733880e-002 1.300387e-002 9.817271e-002 -6.494372e-001
1330000000 -1.643755e-001 2.178064e-001 -1.864038e+000 4.385283e+000 1.758356e-002 1.293763e-002 9.310455e-002 -6.506240e-001
1340000000 -1.611419e-001 2.169437e-001 -1.828759e+000 4.404102e+000 1.781949e-002 1.288014e-002 8.827046e-002 -6.522651e-001
1350000000 -1.579692e-001 2.157934e-001 -1.802267e+000 4.421247e+000 1.803999e-002 1.280353e-002 8.225321e-002 -6.526514e-001
1360000000 -1.553582e-001 2.150657e-001 -1.760389e+000 4.464622e+000 1.828815e-002 1.274328e-002 7.759947e-002 -6.543669e-001
1370000000 -1.521118e-001 2.142381e-001 -1.711396e+000 4.487654e+000 1.852683e-002 1.267118e-002 7.277968e-002 -6.554681e-001
1380000000 -1.493361e-001 2.121285e-001 -1.699575e+000 4.510501e+000 1.876543e-002 1.261096e-002 6.835354e-002 -6.570129e-001
1390000000 -1.471529e-001 2.109620e-001 -1.650572e+000 4.543355e+000 1.900236e-002 1.253334e-002 6.240691e-002 -6.584033e-001
1400000000 -1.440368e-001 2.099072e-001 -1.597362e+000 4.544082e+000 1.924710e-002 1.244379e-002 5.670135e-002 -6.589922e-001
1410000000 -1.411610e-001 2.085803e-001 -1.555708e+000 4.559767e+000 1.949595e-002 1.237317e-002 5.148460e-002 -6.597733e-001
1420000000 -1.380948e-001 2.077649e-001 -1.502342e+000 4.578194e+000 1.973690e-002 1.228329e-002 4.597438e-002 -6.600249e-001
1430000000 -1.348162e-001 2.060774e-001 1.478295e+000 -4.593944e+000 -1.997316e-002 -1.218116e-002 4.109561e-002 -6.605346e-001
1440000000 -1.331991e-001 2.046427e-001 1.443485e+000 -4.648635e+000 -2.021694e-002 -1.208461e-002 3.587648e-002 -6.616033e-001
1450000000 -1.304970e-001 2.035931e-001 1.384803e+000 -4.670543e+000 -2.044730e-002 -1.198156e-002 3.096610e-002 -6.623939e-001
1460000000 -1.279227e-001 2.016449e-001 1.348584e+000 -4.683185e+000 -2.068904e-002 -1.187725e-002 2.615938e-002 -6.634606e-001
1470000000 -1.254537e-001 1.998170e-001 1.307049e+000 -4.696250e+000 -2.095223e-002 -1.177228e-002 2.095686e-002 -6.647571e-001
1480000000 -1.229982e-001 1.981577e-001 1.262795e+000 -4.715773e+000 -2.118972e-002 -1.164907e-002 1.586175e-002 -6.651781e-001
1490000000 -1.206638e-001 1.962476e-001 1.218619e+000 -4.733893e+000 -2.140237e-002 -1.151170e-002 1.058648e-002 -6.653440e-001
1500000000 -1.183605e-001 1.949242e-001 -1.154909e+000 4.750896e+000 2.165847e-002 1.139010e-002 5.404704e-003 -6.661888e-001
1510000000 -1.151017e-001 1.928435e-001 -1.078014e+000 4.739533e+000 2.187936e-002 1.125896e-002 4.613888e-004 -6.660435e-001
1520000000 -1.131303e-001 1.908237e-001 -1.044856e+000 4.765184e+000 2.211804e-002 1.111269e-002 -4.759794e-003 -6.659946e-001
1530000000 -1.111873e-001 1.893498e-001 -1.000692e+000 4.798992e+000 2.236736e-002 1.095871e-002 -9.176943e-003 -6.665696e-001
1540000000 -1.093875e-001 1.872520e-001 -9.648793e-001 4.832258e+000 2.259521e-002 1.081545e-002 -1.325635e-002 -6.672062e-001
1550000000 -1.075337e-001 1.855016e-001 -9.133183e-001 4.849166e+000 2.284433e-002 1.066495e-002 -1.809648e-002 -6.680179e-001
